T0DFC 23196:557.312   SEGGER J-Link V8.12d Log File
T0DFC 23196:557.312   DLL Compiled: Jan 29 2025 13:01:54
T0DFC 23196:557.312   Logging started @ 2025-02-05 09:38
T0DFC 23196:557.312   Process: C:\Keil_v5\UV4\UV4.exe
T0DFC 23196:557.312 - 22695.762ms 
T0DFC 23196:557.312 JLINK_SetWarnOutHandler(...)
T0DFC 23196:557.312 - 0.079ms 
T0DFC 23196:557.312 JLINK_OpenEx(...)
T0DFC 23196:563.456   Firmware: J-Link V9 compiled Dec  8 2023 20:16:22
T0DFC 23196:565.504   Firmware: J-Link V9 compiled Dec  8 2023 20:16:22
T0DFC 23196:565.504   Decompressing FW timestamp took 97 us
T0DFC 23196:571.648   Hardware: V9.70
T0DFC 23196:571.648   S/N: 602712425
T0DFC 23196:571.648   OEM: SEGGER
T0DFC 23196:571.648   Feature(s): GDB, RDI, FlashBP, FlashDL, JFlash
T0DFC 23196:573.696   Bootloader: (FW returned invalid version)
T0DFC 23196:575.744   TELNET listener socket opened on port 19021
T0DFC 23196:581.888   Flash bank @ 0x08000000: SFL: Parsing sectorization info from ELF file
T0DFC 23196:581.888     FlashDevice.SectorInfo[0]: .SectorSize = 0x00001000, .SectorStartAddr = 0x00000000
T0DFC 23196:581.888   OFL: Init() present @ offset 0x0000007D
T0DFC 23196:581.888   OFL: UnInit() present @ offset 0x00000119
T0DFC 23196:581.888   OFL: EraseSector() present @ offset 0x00000181
T0DFC 23196:581.888   OFL: ProgramPage() present @ offset 0x000001C7
T0DFC 23196:581.888   OFL: EraseChip() present @ offset 0x0000012D
T0DFC 23196:581.888   OFL: BlankCheck() present @ offset 0x000001C3
T0DFC 23196:581.888   OFL: Verify() N/A
T0DFC 23196:581.888   OFL: SEGGER_FL_Erase() N/A
T0DFC 23196:581.888   OFL: SEGGER_OPEN_Erase() N/A
T0DFC 23196:581.888   OFL: SEGGER_FL_Program() N/A
T0DFC 23196:581.888   OFL: SEGGER_OPEN_Program() N/A
T0DFC 23196:583.936   OFL: SEGGER_FL_Read() N/A
T0DFC 23196:583.936   OFL: SEGGER_OPEN_Read() N/A
T0DFC 23196:583.936   OFL: SEGGER_FL_CalcCRC() N/A
T0DFC 23196:583.936   OFL: SEGGER_OPEN_CalcCRC() N/A
T0DFC 23196:583.936   OFL: SEGGER_FL_Start() N/A
T0DFC 23196:583.936   OFL: SEGGER_OPEN_Start() N/A
T0DFC 23196:583.936   OFL: SEGGER_FL_GetFlashInfo() N/A
T0DFC 23196:583.936   OFL: SEGGER_OPEN_GetFlashInfo() N/A
T0DFC 23196:583.936   OFL: SEGGER_FL_Verify() N/A
T0DFC 23196:583.936   OFL: SEGGER_FL_CheckBlank() N/A
T0DFC 23196:583.936   OFL: SEGGER_FL_Prepare() N/A
T0DFC 23196:583.936   OFL: SEGGER_FL_Restore() N/A
T0DFC 23196:583.936   OFL: SEGGER_FL_EraseChip() N/A
T0DFC 23196:583.936   OFL var <SEGGER_FL_GoIntEn>: N/A
T0DFC 23196:583.936   OFL var <SEGGER_FL_Flags>: N/A
T0DFC 23196:583.936   Flash bank @ 0x1FFF0E80: SFL: Parsing sectorization info from ELF file
T0DFC 23196:583.936     FlashDevice.SectorInfo[0]: .SectorSize = 0x00000010, .SectorStartAddr = 0x00000000
T0DFC 23196:583.936   OFL: Init() present @ offset 0x0000007D
T0DFC 23196:583.936   OFL: UnInit() present @ offset 0x00000121
T0DFC 23196:583.936   OFL: EraseSector() present @ offset 0x00000141
T0DFC 23196:583.936   OFL: ProgramPage() present @ offset 0x00000149
T0DFC 23196:583.936   OFL: EraseChip() present @ offset 0x0000013D
T0DFC 23196:583.936   OFL: BlankCheck() present @ offset 0x00000145
T0DFC 23196:588.032   OFL: Verify() present @ offset 0x00000199
T0DFC 23196:588.032   OFL: SEGGER_FL_Erase() N/A
T0DFC 23196:588.032   OFL: SEGGER_OPEN_Erase() N/A
T0DFC 23196:588.032   OFL: SEGGER_FL_Program() N/A
T0DFC 23196:588.032   OFL: SEGGER_OPEN_Program() N/A
T0DFC 23196:588.032   OFL: SEGGER_FL_Read() N/A
T0DFC 23196:588.032   OFL: SEGGER_OPEN_Read() N/A
T0DFC 23196:588.032   OFL: SEGGER_FL_CalcCRC() N/A
T0DFC 23196:588.032   OFL: SEGGER_OPEN_CalcCRC() N/A
T0DFC 23196:588.032   OFL: SEGGER_FL_Start() N/A
T0DFC 23196:588.032   OFL: SEGGER_OPEN_Start() N/A
T0DFC 23196:588.032   OFL: SEGGER_FL_GetFlashInfo() N/A
T0DFC 23196:588.032   OFL: SEGGER_OPEN_GetFlashInfo() N/A
T0DFC 23196:588.032   OFL: SEGGER_FL_Verify() N/A
T0DFC 23196:588.032   OFL: SEGGER_FL_CheckBlank() N/A
T0DFC 23196:588.032   OFL: SEGGER_FL_Prepare() N/A
T0DFC 23196:588.032   OFL: SEGGER_FL_Restore() N/A
T0DFC 23196:588.032   OFL: SEGGER_FL_EraseChip() N/A
T0DFC 23196:588.032   OFL var <SEGGER_FL_GoIntEn>: N/A
T0DFC 23196:590.080   OFL var <SEGGER_FL_Flags>: N/A
T0DFC 23196:592.128   Device "PY32F030X8" selected.
T0DFC 23196:592.128   WEBSRV WEBSRV_Init(): Starting webserver thread(s)
T0DFC 23196:592.128   WEBSRV Failed to put socket into listener state (port 19080)
T0DFC 23196:592.128   WEBSRV Webserver running on local port 19081
T0DFC 23196:596.224   Looking for J-Link GUI Server exe at: C:\Keil_v5\ARM\Segger\JLinkGUIServer.exe
T0DFC 23196:596.224   Looking for J-Link GUI Server exe at: C:\Program Files\SEGGER\JLink_V812d\JLinkGUIServer.exe
T0DFC 23196:596.224   Forking J-Link GUI Server: C:\Program Files\SEGGER\JLink_V812d\JLinkGUIServer.exe
T0DFC 23196:596.224   J-Link GUI Server info: "J-Link GUI server V7.98d "
T0DFC 23196:596.224 - 38.945ms returns "O.K."
T0DFC 23196:598.272 JLINK_GetEmuCaps()
T0DFC 23196:598.272 - 0.132ms returns 0xB9FF7BBF
T0DFC 23196:598.272 JLINK_TIF_GetAvailable(...)
T0DFC 23196:598.272 - 0.404ms 
T0DFC 23196:598.272 JLINK_SetErrorOutHandler(...)
T0DFC 23196:598.272 - 0.094ms 
T0DFC 23196:600.320 JLINK_ExecCommand("ProjectFile = "\\Mac\Home\Documents\work\PY32F071_Firmware_V1.0.3\PY32F07x_IAP_APP_Firmware_V0.0.3\Projects\PY32F072xx_IAP_sb\MDK-ARM\JLinkSettings.ini"", ...). 
T0DFC 23196:600.320   Flash bank @ 0x08000000: SFL: Parsing sectorization info from ELF file
T0DFC 23196:600.320     FlashDevice.SectorInfo[0]: .SectorSize = 0x00001000, .SectorStartAddr = 0x00000000
T0DFC 23196:600.320   OFL: Init() present @ offset 0x0000007D
T0DFC 23196:600.320   OFL: UnInit() present @ offset 0x00000119
T0DFC 23196:600.320   OFL: EraseSector() present @ offset 0x00000181
T0DFC 23196:600.320   OFL: ProgramPage() present @ offset 0x000001C7
T0DFC 23196:600.320   OFL: EraseChip() present @ offset 0x0000012D
T0DFC 23196:600.320   OFL: BlankCheck() present @ offset 0x000001C3
T0DFC 23196:600.320   OFL: Verify() N/A
T0DFC 23196:600.320   OFL: SEGGER_FL_Erase() N/A
T0DFC 23196:600.320   OFL: SEGGER_OPEN_Erase() N/A
T0DFC 23196:600.320   OFL: SEGGER_FL_Program() N/A
T0DFC 23196:600.320   OFL: SEGGER_OPEN_Program() N/A
T0DFC 23196:600.320   OFL: SEGGER_FL_Read() N/A
T0DFC 23196:600.320   OFL: SEGGER_OPEN_Read() N/A
T0DFC 23196:600.320   OFL: SEGGER_FL_CalcCRC() N/A
T0DFC 23196:600.320   OFL: SEGGER_OPEN_CalcCRC() N/A
T0DFC 23196:600.320   OFL: SEGGER_FL_Start() N/A
T0DFC 23196:600.320   OFL: SEGGER_OPEN_Start() N/A
T0DFC 23196:600.320   OFL: SEGGER_FL_GetFlashInfo() N/A
T0DFC 23196:600.320   OFL: SEGGER_OPEN_GetFlashInfo() N/A
T0DFC 23196:600.320   OFL: SEGGER_FL_Verify() N/A
T0DFC 23196:600.320   OFL: SEGGER_FL_CheckBlank() N/A
T0DFC 23196:600.320   OFL: SEGGER_FL_Prepare() N/A
T0DFC 23196:600.320   OFL: SEGGER_FL_Restore() N/A
T0DFC 23196:600.320   OFL: SEGGER_FL_EraseChip() N/A
T0DFC 23196:604.416   OFL var <SEGGER_FL_GoIntEn>: N/A
T0DFC 23196:604.416   OFL var <SEGGER_FL_Flags>: N/A
T0DFC 23196:604.416   Flash bank @ 0x1FFF0E80: SFL: Parsing sectorization info from ELF file
T0DFC 23196:604.416     FlashDevice.SectorInfo[0]: .SectorSize = 0x00000010, .SectorStartAddr = 0x00000000
T0DFC 23196:604.416   OFL: Init() present @ offset 0x0000007D
T0DFC 23196:604.416   OFL: UnInit() present @ offset 0x00000121
T0DFC 23196:604.416   OFL: EraseSector() present @ offset 0x00000141
T0DFC 23196:604.416   OFL: ProgramPage() present @ offset 0x00000149
T0DFC 23196:604.416   OFL: EraseChip() present @ offset 0x0000013D
T0DFC 23196:604.416   OFL: BlankCheck() present @ offset 0x00000145
T0DFC 23196:604.416   OFL: Verify() present @ offset 0x00000199
T0DFC 23196:604.416   OFL: SEGGER_FL_Erase() N/A
T0DFC 23196:604.416   OFL: SEGGER_OPEN_Erase() N/A
T0DFC 23196:604.416   OFL: SEGGER_FL_Program() N/A
T0DFC 23196:604.416   OFL: SEGGER_OPEN_Program() N/A
T0DFC 23196:604.416   OFL: SEGGER_FL_Read() N/A
T0DFC 23196:604.416   OFL: SEGGER_OPEN_Read() N/A
T0DFC 23196:604.416   OFL: SEGGER_FL_CalcCRC() N/A
T0DFC 23196:604.416   OFL: SEGGER_OPEN_CalcCRC() N/A
T0DFC 23196:604.416   OFL: SEGGER_FL_Start() N/A
T0DFC 23196:604.416   OFL: SEGGER_OPEN_Start() N/A
T0DFC 23196:604.416   OFL: SEGGER_FL_GetFlashInfo() N/A
T0DFC 23196:604.416   OFL: SEGGER_OPEN_GetFlashInfo() N/A
T0DFC 23196:604.416   OFL: SEGGER_FL_Verify() N/A
T0DFC 23196:604.416   OFL: SEGGER_FL_CheckBlank() N/A
T0DFC 23196:606.464   OFL: SEGGER_FL_Prepare() N/A
T0DFC 23196:606.464   OFL: SEGGER_FL_Restore() N/A
T0DFC 23196:606.464   OFL: SEGGER_FL_EraseChip() N/A
T0DFC 23196:606.464   OFL var <SEGGER_FL_GoIntEn>: N/A
T0DFC 23196:606.464   OFL var <SEGGER_FL_Flags>: N/A
T0DFC 23196:608.512   Device "PY32F030X8" selected.
T0DFC 23196:608.512 - 10.457ms returns 0x00
T0DFC 23196:612.608 JLINK_ExecCommand("Device = PY32F072xB", ...). 
T0DFC 23196:614.656   Flash bank @ 0x08000000: SFL: Parsing sectorization info from ELF file
T0DFC 23196:614.656     FlashDevice.SectorInfo[0]: .SectorSize = 0x00001000, .SectorStartAddr = 0x00000000
T0DFC 23196:614.656   OFL: Init() present @ offset 0x0000007D
T0DFC 23196:614.656   OFL: UnInit() present @ offset 0x00000119
T0DFC 23196:614.656   OFL: EraseSector() present @ offset 0x00000181
T0DFC 23196:614.656   OFL: ProgramPage() present @ offset 0x000001C7
T0DFC 23196:614.656   OFL: EraseChip() present @ offset 0x0000012D
T0DFC 23196:614.656   OFL: BlankCheck() present @ offset 0x000001C3
T0DFC 23196:614.656   OFL: Verify() N/A
T0DFC 23196:614.656   OFL: SEGGER_FL_Erase() N/A
T0DFC 23196:614.656   OFL: SEGGER_OPEN_Erase() N/A
T0DFC 23196:614.656   OFL: SEGGER_FL_Program() N/A
T0DFC 23196:614.656   OFL: SEGGER_OPEN_Program() N/A
T0DFC 23196:614.656   OFL: SEGGER_FL_Read() N/A
T0DFC 23196:614.656   OFL: SEGGER_OPEN_Read() N/A
T0DFC 23196:614.656   OFL: SEGGER_FL_CalcCRC() N/A
T0DFC 23196:614.656   OFL: SEGGER_OPEN_CalcCRC() N/A
T0DFC 23196:614.656   OFL: SEGGER_FL_Start() N/A
T0DFC 23196:614.656   OFL: SEGGER_OPEN_Start() N/A
T0DFC 23196:614.656   OFL: SEGGER_FL_GetFlashInfo() N/A
T0DFC 23196:614.656   OFL: SEGGER_OPEN_GetFlashInfo() N/A
T0DFC 23196:616.704   OFL: SEGGER_FL_Verify() N/A
T0DFC 23196:616.704   OFL: SEGGER_FL_CheckBlank() N/A
T0DFC 23196:616.704   OFL: SEGGER_FL_Prepare() N/A
T0DFC 23196:616.704   OFL: SEGGER_FL_Restore() N/A
T0DFC 23196:616.704   OFL: SEGGER_FL_EraseChip() N/A
T0DFC 23196:616.704   OFL var <SEGGER_FL_GoIntEn>: N/A
T0DFC 23196:616.704   OFL var <SEGGER_FL_Flags>: N/A
T0DFC 23196:616.704   Flash bank @ 0x1FFF0E80: SFL: Parsing sectorization info from ELF file
T0DFC 23196:616.704     FlashDevice.SectorInfo[0]: .SectorSize = 0x00000010, .SectorStartAddr = 0x00000000
T0DFC 23196:616.704   OFL: Init() present @ offset 0x0000007D
T0DFC 23196:616.704   OFL: UnInit() present @ offset 0x00000121
T0DFC 23196:616.704   OFL: EraseSector() present @ offset 0x00000141
T0DFC 23196:616.704   OFL: ProgramPage() present @ offset 0x00000149
T0DFC 23196:616.704   OFL: EraseChip() present @ offset 0x0000013D
T0DFC 23196:616.704   OFL: BlankCheck() present @ offset 0x00000145
T0DFC 23196:616.704   OFL: Verify() present @ offset 0x00000199
T0DFC 23196:616.704   OFL: SEGGER_FL_Erase() N/A
T0DFC 23196:616.704   OFL: SEGGER_OPEN_Erase() N/A
T0DFC 23196:616.704   OFL: SEGGER_FL_Program() N/A
T0DFC 23196:616.704   OFL: SEGGER_OPEN_Program() N/A
T0DFC 23196:616.704   OFL: SEGGER_FL_Read() N/A
T0DFC 23196:616.704   OFL: SEGGER_OPEN_Read() N/A
T0DFC 23196:620.800   OFL: SEGGER_FL_CalcCRC() N/A
T0DFC 23196:620.800   OFL: SEGGER_OPEN_CalcCRC() N/A
T0DFC 23196:620.800   OFL: SEGGER_FL_Start() N/A
T0DFC 23196:620.800   OFL: SEGGER_OPEN_Start() N/A
T0DFC 23196:620.800   OFL: SEGGER_FL_GetFlashInfo() N/A
T0DFC 23196:620.800   OFL: SEGGER_OPEN_GetFlashInfo() N/A
T0DFC 23196:620.800   OFL: SEGGER_FL_Verify() N/A
T0DFC 23196:620.800   OFL: SEGGER_FL_CheckBlank() N/A
T0DFC 23196:620.800   OFL: SEGGER_FL_Prepare() N/A
T0DFC 23196:620.800   OFL: SEGGER_FL_Restore() N/A
T0DFC 23196:620.800   OFL: SEGGER_FL_EraseChip() N/A
T0DFC 23196:620.800   OFL var <SEGGER_FL_GoIntEn>: N/A
T0DFC 23196:620.800   OFL var <SEGGER_FL_Flags>: N/A
T0DFC 23196:622.848   Device "PY32F030X8" selected.
T0DFC 23196:622.848 - 11.112ms returns 0x00
T0DFC 23196:624.896 JLINK_ExecCommand("DisableConnectionTimeout", ...). 
T0DFC 23196:624.896   ERROR: Unknown command
T0DFC 23196:624.896 - 0.133ms returns 0x01
T0DFC 23196:624.896 JLINK_GetHardwareVersion()
T0DFC 23196:624.896 - 0.105ms returns 97000
T0DFC 23196:624.896 JLINK_GetDLLVersion()
T0DFC 23196:624.896 - 0.098ms returns 81204
T0DFC 23196:624.896 JLINK_GetOEMString(...)
T0DFC 23196:624.896 JLINK_GetFirmwareString(...)
T0DFC 23196:624.896 - 0.080ms 
T0DFC 23196:631.040 JLINK_GetDLLVersion()
T0DFC 23196:633.088 - 0.195ms returns 81204
T0DFC 23196:633.088 JLINK_GetCompileDateTime()
T0DFC 23196:633.088 - 0.122ms 
T0DFC 23196:633.088 JLINK_GetFirmwareString(...)
T0DFC 23196:633.088 - 0.157ms 
T0DFC 23196:637.184 JLINK_GetHardwareVersion()
T0DFC 23196:637.184 - 0.183ms returns 97000
T0DFC 23196:639.232 JLINK_GetSN()
T0DFC 23196:641.280 - 0.189ms returns 602712425
T0DFC 23196:645.376 JLINK_GetOEMString(...)
T0DFC 23196:647.424 JLINK_TIF_Select(JLINKARM_TIF_SWD)
T0DFC 23196:649.472 - 2.053ms returns 0x00
T0DFC 23196:649.472 JLINK_HasError()
T0DFC 23196:649.472 JLINK_SetSpeed(50000)
T0DFC 23196:649.472 - 0.093ms 
T0DFC 23196:649.472 JLINK_GetId()
T0DFC 23196:655.616   Found SW-DP with ID 0x0BC11477
T0DFC 23196:663.808   DPIDR: 0x0BC11477
T0DFC 23196:665.856   CoreSight SoC-400 or earlier
T0DFC 23196:669.952   Scanning AP map to find all available APs
T0DFC 23196:672.000   AP[1]: Stopped AP scan as end of AP map has been reached
T0DFC 23196:678.144   AP[0]: AHB-AP (IDR: 0x04770031, ADDR: 0x00000000)
T0DFC 23196:678.144   Iterating through AP map to find AHB-AP to use
T0DFC 23196:682.240   AP[0]: Core found
T0DFC 23196:686.336   AP[0]: AHB-AP ROM base: 0xE00FF000
T0DFC 23196:688.384   CPUID register: 0x410CC601. Implementer code: 0x41 (ARM)
T0DFC 23196:690.432   Found Cortex-M0 r0p1, Little endian.
T0DFC 23196:694.528   -- Max. mem block: 0x0000D200
T0DFC 23196:694.528   CPU_ReadMem(4 bytes @ 0xE000EDF0)
T0DFC 23196:694.528   CPU_WriteMem(4 bytes @ 0xE000EDF0)
T0DFC 23196:696.576   CPU_ReadMem(4 bytes @ 0xE0002000)
T0DFC 23196:698.624   FPUnit: 4 code (BP) slots and 0 literal slots
T0DFC 23196:698.624   CPU_ReadMem(4 bytes @ 0xE000EDFC)
T0DFC 23196:698.624   CPU_WriteMem(4 bytes @ 0xE000EDFC)
T0DFC 23196:698.624   CPU_ReadMem(4 bytes @ 0xE0001000)
T0DFC 23196:702.720   CPU_WriteMem(4 bytes @ 0xE0001000)
T0DFC 23196:704.768   CoreSight components:
T0DFC 23196:706.816   ROMTbl[0] @ E00FF000
T0DFC 23196:706.816   CPU_ReadMem(64 bytes @ 0xE00FF000)
T0DFC 23196:706.816   CPU_ReadMem(32 bytes @ 0xE000EFE0)
T0DFC 23196:710.912   [0][0]: E000E000 CID B105E00D PID 000BB008 SCS
T0DFC 23196:712.960   CPU_ReadMem(32 bytes @ 0xE0001FE0)
T0DFC 23196:715.008   [0][1]: E0001000 CID B105E00D PID 000BB00A DWT
T0DFC 23196:715.008   CPU_ReadMem(32 bytes @ 0xE0002FE0)
T0DFC 23196:719.104   [0][2]: E0002000 CID B105E00D PID 000BB00B FPB
T0DFC 23196:719.104 - 67.977ms returns 0x0BC11477
T0DFC 23196:719.104 JLINK_GetDLLVersion()
T0DFC 23196:719.104 - 0.113ms returns 81204
T0DFC 23196:721.152 JLINK_CORE_GetFound()
T0DFC 23196:721.152 - 0.084ms returns 0x60000FF
T0DFC 23196:721.152 JLINK_GetDebugInfo(0x100 = JLINKARM_ROM_TABLE_ADDR_INDEX)
T0DFC 23196:721.152   Value=0xE00FF000
T0DFC 23196:721.152 - 0.209ms returns 0
T0DFC 23196:723.200 JLINK_GetDebugInfo(0x100 = JLINKARM_ROM_TABLE_ADDR_INDEX)
T0DFC 23196:723.200   Value=0xE00FF000
T0DFC 23196:723.200 - 0.391ms returns 0
T0DFC 23196:723.200 JLINK_GetDebugInfo(0x101 = JLINKARM_DEBUG_INFO_ETM_ADDR_INDEX)
T0DFC 23196:723.200   Value=0x00000000
T0DFC 23196:723.200 - 0.246ms returns 0
T0DFC 23196:723.200 JLINK_ReadMemEx(0xE0041FF0, 0x10 Bytes, Flags = 0x02000004)
T0DFC 23196:723.200   CPU_ReadMem(16 bytes @ 0xE0041FF0)
T0DFC 23196:729.344   Data:  00 00 00 00 00 00 00 00 00 00 00 00 00 00 00 00
T0DFC 23196:729.344 - 6.477ms returns 16 (0x10)
T0DFC 23196:729.344 JLINK_GetDebugInfo(0x102 = JLINKARM_DEBUG_INFO_MTB_ADDR_INDEX)
T0DFC 23196:731.392   Value=0x00000000
T0DFC 23196:731.392 - 0.289ms returns 0
T0DFC 23196:731.392 JLINK_GetDebugInfo(0x103 = JLINKARM_DEBUG_INFO_TPIU_ADDR_INDEX)
T0DFC 23196:731.392   Value=0x00000000
T0DFC 23196:731.392 - 0.269ms returns 0
T0DFC 23196:731.392 JLINK_ReadMemEx(0xE0040FF0, 0x10 Bytes, Flags = 0x02000004)
T0DFC 23196:731.392   CPU_ReadMem(16 bytes @ 0xE0040FF0)
T0DFC 23196:737.536   Data:  00 00 00 00 00 00 00 00 00 00 00 00 00 00 00 00
T0DFC 23196:737.536 - 6.373ms returns 16 (0x10)
T0DFC 23196:737.536 JLINK_GetDebugInfo(0x104 = JLINKARM_DEBUG_INFO_ITM_ADDR_INDEX)
T0DFC 23196:737.536   Value=0xE0000000
T0DFC 23196:737.536 - 0.260ms returns 0
T0DFC 23196:737.536 JLINK_GetDebugInfo(0x105 = JLINKARM_DEBUG_INFO_DWT_ADDR_INDEX)
T0DFC 23196:737.536   Value=0xE0001000
T0DFC 23196:737.536 - 0.124ms returns 0
T0DFC 23196:737.536 JLINK_GetDebugInfo(0x106 = JLINKARM_DEBUG_INFO_FPB_ADDR_INDEX)
T0DFC 23196:737.536   Value=0xE0002000
T0DFC 23196:737.536 - 0.098ms returns 0
T0DFC 23196:737.536 JLINK_GetDebugInfo(0x107 = JLINKARM_DEBUG_INFO_NVIC_ADDR_INDEX)
T0DFC 23196:737.536   Value=0xE000E000
T0DFC 23196:737.536 - 0.181ms returns 0
T0DFC 23196:739.584 JLINK_GetDebugInfo(0x10C = JLINKARM_DEBUG_INFO_DBG_ADDR_INDEX)
T0DFC 23196:739.584   Value=0xE000EDF0
T0DFC 23196:739.584 - 0.258ms returns 0
T0DFC 23196:739.584 JLINK_GetDebugInfo(0x01 = Unknown)
T0DFC 23196:739.584   Value=0x00000000
T0DFC 23196:739.584 - 0.071ms returns 0
T0DFC 23196:739.584 JLINK_ReadMemU32(0xE000ED00, 0x1 Items)
T0DFC 23196:739.584   CPU_ReadMem(4 bytes @ 0xE000ED00)
T0DFC 23196:739.584   Data:  01 C6 0C 41
T0DFC 23196:739.584   Debug reg: CPUID
T0DFC 23196:739.584 - 1.521ms returns 1 (0x1)
T0DFC 23196:739.584 JLINK_GetDebugInfo(0x10F = JLINKARM_DEBUG_INFO_HAS_CORTEX_M_SECURITY_EXT_INDEX)
T0DFC 23196:739.584   Value=0x00000000
T0DFC 23196:739.584 - 0.229ms returns 0
T0DFC 23196:739.584 JLINK_HasError()
T0DFC 23196:743.680 JLINK_SetResetType(JLINKARM_CM3_RESET_TYPE_NORMAL)
T0DFC 23196:743.680 - 0.060ms returns JLINKARM_CM3_RESET_TYPE_NORMAL
T0DFC 23196:743.680 JLINK_Reset()
T0DFC 23196:743.680   JLINK_GetResetTypeDesc
T0DFC 23196:743.680   - 0.073ms 
T0DFC 23196:745.728   Reset type: NORMAL (https://wiki.segger.com/J-Link_Reset_Strategies)
T0DFC 23196:745.728   CPU is running
T0DFC 23196:745.728   CPU_WriteMem(4 bytes @ 0xE000EDF0)
T0DFC 23196:745.728   CPU is running
T0DFC 23196:745.728   CPU_WriteMem(4 bytes @ 0xE000EDFC)
T0DFC 23196:747.776   Reset: Halt core after reset via DEMCR.VC_CORERESET.
T0DFC 23196:753.920   Reset: Reset device via AIRCR.SYSRESETREQ.
T0DFC 23196:753.920   CPU is running
T0DFC 23196:753.920   CPU_WriteMem(4 bytes @ 0xE000ED0C)
T0DFC 23196:809.216   CPU_ReadMem(4 bytes @ 0xE000EDF0)
T0DFC 23196:809.216   CPU_ReadMem(4 bytes @ 0xE000EDF0)
T0DFC 23196:811.264   CPU_WriteMem(4 bytes @ 0xE000EDFC)
T0DFC 23196:819.456   CPU_ReadMem(4 bytes @ 0xE000EDF0)
T0DFC 23196:821.504   CPU_WriteMem(4 bytes @ 0xE0002000)
T0DFC 23196:821.504   CPU_ReadMem(4 bytes @ 0xE000EDFC)
T0DFC 23196:821.504   CPU_ReadMem(4 bytes @ 0xE0001000)
T0DFC 23196:825.600   CPU_WriteMem(4 bytes @ 0xE0001000)
T0DFC 23196:825.600 - 82.472ms 
T0DFC 23196:825.600 JLINK_Halt()
T0DFC 23196:825.600 - 0.106ms returns 0x00
T0DFC 23196:825.600 JLINK_ReadMemU32(0xE000EDF0, 0x1 Items)
T0DFC 23196:825.600   CPU_ReadMem(4 bytes @ 0xE000EDF0)
T0DFC 23196:825.600   Data:  03 00 03 00
T0DFC 23196:825.600   Debug reg: DHCSR
T0DFC 23196:825.600 - 1.484ms returns 1 (0x1)
T0DFC 23196:827.648 JLINK_WriteU32(0xE000EDF0, 0xA05F0003)
T0DFC 23196:827.648   Debug reg: DHCSR
T0DFC 23196:827.648   CPU_WriteMem(4 bytes @ 0xE000EDF0)
T0DFC 23196:827.648 - 1.431ms returns 0 (0x00000000)
T0DFC 23196:827.648 JLINK_WriteU32(0xE000EDFC, 0x01000000)
T0DFC 23196:827.648   Debug reg: DEMCR
T0DFC 23196:827.648   CPU_WriteMem(4 bytes @ 0xE000EDFC)
T0DFC 23196:827.648 - 1.050ms returns 0 (0x00000000)
T0DFC 23196:844.032 JLINK_GetHWStatus(...)
T0DFC 23196:844.032 - 1.458ms returns 0
T0DFC 23196:852.224 JLINK_GetNumBPUnits(Type = 0xFFFFFF00)
T0DFC 23196:854.272 - 0.242ms returns 0x04
T0DFC 23196:854.272 JLINK_GetNumBPUnits(Type = 0xF0)
T0DFC 23196:854.272 - 0.138ms returns 0x2000
T0DFC 23196:854.272 JLINK_GetNumWPUnits()
T0DFC 23196:854.272 - 0.098ms returns 2
T0DFC 23196:860.416 JLINK_GetSpeed()
T0DFC 23196:860.416 - 0.217ms returns 12000
T0DFC 23196:868.608 JLINK_ReadMemU32(0xE000E004, 0x1 Items)
T0DFC 23196:868.608   CPU_ReadMem(4 bytes @ 0xE000E004)
T0DFC 23196:870.656   Data:  00 00 00 00
T0DFC 23196:870.656 - 2.022ms returns 1 (0x1)
T0DFC 23196:870.656 JLINK_Halt()
T0DFC 23196:870.656 - 0.102ms returns 0x00
T0DFC 23196:870.656 JLINK_IsHalted()
T0DFC 23196:870.656 - 0.090ms returns TRUE
T0DFC 23196:874.752 JLINK_WriteMem(0x20000000, 0x408 Bytes, ...)
T0DFC 23196:876.800   Data:  00 BE 0A E0 0D 78 2D 06 68 40 08 24 40 00 00 D3 ...
T0DFC 23196:876.800   CPU_WriteMem(1032 bytes @ 0x20000000)
T0DFC 23196:882.944 - 6.560ms returns 0x408
T0DFC 23196:882.944 JLINK_HasError()
T0DFC 23196:882.944 JLINK_WriteReg(R0, 0x08000000)
T0DFC 23196:882.944 - 0.089ms returns 0
T0DFC 23196:882.944 JLINK_WriteReg(R1, 0x00B71B00)
T0DFC 23196:882.944 - 0.062ms returns 0
T0DFC 23196:882.944 JLINK_WriteReg(R2, 0x00000001)
T0DFC 23196:882.944 - 0.065ms returns 0
T0DFC 23196:882.944 JLINK_WriteReg(R3, 0x00000000)
T0DFC 23196:882.944 - 0.063ms returns 0
T0DFC 23196:882.944 JLINK_WriteReg(R4, 0x00000000)
T0DFC 23196:882.944 - 0.058ms returns 0
T0DFC 23196:882.944 JLINK_WriteReg(R5, 0x00000000)
T0DFC 23196:882.944 - 0.082ms returns 0
T0DFC 23196:882.944 JLINK_WriteReg(R6, 0x00000000)
T0DFC 23196:882.944 - 0.104ms returns 0
T0DFC 23196:882.944 JLINK_WriteReg(R7, 0x00000000)
T0DFC 23196:884.992 - 0.073ms returns 0
T0DFC 23196:884.992 JLINK_WriteReg(R8, 0x00000000)
T0DFC 23196:884.992 - 0.066ms returns 0
T0DFC 23196:884.992 JLINK_WriteReg(R9, 0x20000400)
T0DFC 23196:884.992 - 0.117ms returns 0
T0DFC 23196:884.992 JLINK_WriteReg(R10, 0x00000000)
T0DFC 23196:884.992 - 0.065ms returns 0
T0DFC 23196:884.992 JLINK_WriteReg(R11, 0x00000000)
T0DFC 23196:884.992 - 0.083ms returns 0
T0DFC 23196:884.992 JLINK_WriteReg(R12, 0x00000000)
T0DFC 23196:884.992 - 0.077ms returns 0
T0DFC 23196:884.992 JLINK_WriteReg(R13 (SP), 0x20001000)
T0DFC 23196:884.992 - 0.081ms returns 0
T0DFC 23196:884.992 JLINK_WriteReg(R14, 0x20000001)
T0DFC 23196:884.992 - 0.077ms returns 0
T0DFC 23196:884.992 JLINK_WriteReg(R15 (PC), 0x200001A8)
T0DFC 23196:884.992 - 0.093ms returns 0
T0DFC 23196:884.992 JLINK_WriteReg(XPSR, 0x01000000)
T0DFC 23196:884.992 - 0.074ms returns 0
T0DFC 23196:884.992 JLINK_WriteReg(MSP, 0x20001000)
T0DFC 23196:884.992 - 0.071ms returns 0
T0DFC 23196:884.992 JLINK_WriteReg(PSP, 0x20001000)
T0DFC 23196:884.992 - 0.076ms returns 0
T0DFC 23196:884.992 JLINK_WriteReg(CFBP, 0x00000000)
T0DFC 23196:884.992 - 0.075ms returns 0
T0DFC 23196:884.992 JLINK_SetBPEx(Addr = 0x20000000, Type = 0xFFFFFFF2)
T0DFC 23196:884.992   CPU_ReadMem(2 bytes @ 0x20000000)
T0DFC 23196:887.040 - 1.418ms returns 0x00000001
T0DFC 23196:887.040 JLINK_Go()
T0DFC 23196:887.040   CPU_WriteMem(2 bytes @ 0x20000000)
T0DFC 23196:887.040   CPU_ReadMem(4 bytes @ 0xE0001000)
T0DFC 23196:891.136   CPU_WriteMem(4 bytes @ 0xE0001000)
T0DFC 23196:891.136   CPU_WriteMem(4 bytes @ 0xE0002008)
T0DFC 23196:891.136   CPU_WriteMem(4 bytes @ 0xE000200C)
T0DFC 23196:891.136   CPU_WriteMem(4 bytes @ 0xE0002010)
T0DFC 23196:891.136   CPU_WriteMem(4 bytes @ 0xE0002014)
T0DFC 23196:893.184   CPU_WriteMem(4 bytes @ 0xE0001004)
T0DFC 23196:899.328   Memory map 'after startup completion point' is active
T0DFC 23196:901.376 - 12.848ms 
T0DFC 23196:901.376 JLINK_IsHalted()
T0DFC 23196:903.424   CPU_ReadMem(2 bytes @ 0x20000000)
T0DFC 23196:907.520 - 6.077ms returns TRUE
T0DFC 23196:907.520 JLINK_ReadReg(R15 (PC))
T0DFC 23196:907.520 - 0.102ms returns 0x20000000
T0DFC 23196:907.520 JLINK_ClrBPEx(BPHandle = 0x00000001)
T0DFC 23196:907.520 - 0.091ms returns 0x00
T0DFC 23196:907.520 JLINK_ReadReg(R0)
T0DFC 23196:907.520 - 0.088ms returns 0x00000000
T0DFC 23196:907.520 JLINK_HasError()
T0DFC 23196:907.520 JLINK_WriteReg(R0, 0x08000000)
T0DFC 23196:907.520 - 0.098ms returns 0
T0DFC 23196:907.520 JLINK_WriteReg(R1, 0x00002000)
T0DFC 23196:907.520 - 0.077ms returns 0
T0DFC 23196:907.520 JLINK_WriteReg(R2, 0x000000FF)
T0DFC 23196:907.520 - 0.091ms returns 0
T0DFC 23196:907.520 JLINK_WriteReg(R3, 0x00000000)
T0DFC 23196:907.520 - 0.085ms returns 0
T0DFC 23196:909.568 JLINK_WriteReg(R4, 0x00000000)
T0DFC 23196:909.568 - 0.081ms returns 0
T0DFC 23196:909.568 JLINK_WriteReg(R5, 0x00000000)
T0DFC 23196:909.568 - 0.081ms returns 0
T0DFC 23196:909.568 JLINK_WriteReg(R6, 0x00000000)
T0DFC 23196:909.568 - 0.087ms returns 0
T0DFC 23196:909.568 JLINK_WriteReg(R7, 0x00000000)
T0DFC 23196:909.568 - 0.081ms returns 0
T0DFC 23196:909.568 JLINK_WriteReg(R8, 0x00000000)
T0DFC 23196:909.568 - 0.085ms returns 0
T0DFC 23196:909.568 JLINK_WriteReg(R9, 0x20000400)
T0DFC 23196:909.568 - 0.081ms returns 0
T0DFC 23196:909.568 JLINK_WriteReg(R10, 0x00000000)
T0DFC 23196:909.568 - 0.080ms returns 0
T0DFC 23196:909.568 JLINK_WriteReg(R11, 0x00000000)
T0DFC 23196:909.568 - 0.081ms returns 0
T0DFC 23196:909.568 JLINK_WriteReg(R12, 0x00000000)
T0DFC 23196:909.568 - 0.080ms returns 0
T0DFC 23196:909.568 JLINK_WriteReg(R13 (SP), 0x20001000)
T0DFC 23196:909.568 - 0.096ms returns 0
T0DFC 23196:909.568 JLINK_WriteReg(R14, 0x20000001)
T0DFC 23196:909.568 - 0.080ms returns 0
T0DFC 23196:909.568 JLINK_WriteReg(R15 (PC), 0x2000031C)
T0DFC 23196:909.568 - 0.065ms returns 0
T0DFC 23196:909.568 JLINK_WriteReg(XPSR, 0x01000000)
T0DFC 23196:909.568 - 0.064ms returns 0
T0DFC 23196:909.568 JLINK_WriteReg(MSP, 0x20001000)
T0DFC 23196:909.568 - 0.065ms returns 0
T0DFC 23196:909.568 JLINK_WriteReg(PSP, 0x20001000)
T0DFC 23196:909.568 - 0.065ms returns 0
T0DFC 23196:909.568 JLINK_WriteReg(CFBP, 0x00000000)
T0DFC 23196:909.568 - 0.064ms returns 0
T0DFC 23196:909.568 JLINK_SetBPEx(Addr = 0x20000000, Type = 0xFFFFFFF2)
T0DFC 23196:909.568 - 0.071ms returns 0x00000002
T0DFC 23196:909.568 JLINK_Go()
T0DFC 23196:911.616   CPU_ReadMem(4 bytes @ 0xE0001000)
T0DFC 23196:917.760 - 6.633ms 
T0DFC 23196:917.760 JLINK_IsHalted()
T0DFC 23196:919.808   CPU_ReadMem(2 bytes @ 0x20000000)
T0DFC 23196:923.904 - 4.365ms returns TRUE
T0DFC 23196:923.904 JLINK_ReadReg(R15 (PC))
T0DFC 23196:923.904 - 0.177ms returns 0x20000000
T0DFC 23196:923.904 JLINK_ClrBPEx(BPHandle = 0x00000002)
T0DFC 23196:923.904 - 0.098ms returns 0x00
T0DFC 23196:923.904 JLINK_ReadReg(R0)
T0DFC 23196:923.904 - 0.109ms returns 0x00000001
T0DFC 23196:923.904 JLINK_HasError()
T0DFC 23196:923.904 JLINK_WriteReg(R0, 0x08000000)
T0DFC 23196:923.904 - 0.089ms returns 0
T0DFC 23196:923.904 JLINK_WriteReg(R1, 0x00002000)
T0DFC 23196:923.904 - 0.082ms returns 0
T0DFC 23196:923.904 JLINK_WriteReg(R2, 0x000000FF)
T0DFC 23196:923.904 - 0.065ms returns 0
T0DFC 23196:923.904 JLINK_WriteReg(R3, 0x00000000)
T0DFC 23196:923.904 - 0.087ms returns 0
T0DFC 23196:923.904 JLINK_WriteReg(R4, 0x00000000)
T0DFC 23196:923.904 - 0.086ms returns 0
T0DFC 23196:923.904 JLINK_WriteReg(R5, 0x00000000)
T0DFC 23196:923.904 - 0.084ms returns 0
T0DFC 23196:923.904 JLINK_WriteReg(R6, 0x00000000)
T0DFC 23196:923.904 - 0.143ms returns 0
T0DFC 23196:923.904 JLINK_WriteReg(R7, 0x00000000)
T0DFC 23196:923.904 - 0.068ms returns 0
T0DFC 23196:923.904 JLINK_WriteReg(R8, 0x00000000)
T0DFC 23196:923.904 - 0.070ms returns 0
T0DFC 23196:923.904 JLINK_WriteReg(R9, 0x20000400)
T0DFC 23196:925.952 - 0.078ms returns 0
T0DFC 23196:925.952 JLINK_WriteReg(R10, 0x00000000)
T0DFC 23196:925.952 - 0.065ms returns 0
T0DFC 23196:925.952 JLINK_WriteReg(R11, 0x00000000)
T0DFC 23196:925.952 - 0.052ms returns 0
T0DFC 23196:925.952 JLINK_WriteReg(R12, 0x00000000)
T0DFC 23196:925.952 - 0.059ms returns 0
T0DFC 23196:925.952 JLINK_WriteReg(R13 (SP), 0x20001000)
T0DFC 23196:925.952 - 0.063ms returns 0
T0DFC 23196:925.952 JLINK_WriteReg(R14, 0x20000001)
T0DFC 23196:925.952 - 0.078ms returns 0
T0DFC 23196:925.952 JLINK_WriteReg(R15 (PC), 0x200002AC)
T0DFC 23196:925.952 - 0.059ms returns 0
T0DFC 23196:925.952 JLINK_WriteReg(XPSR, 0x01000000)
T0DFC 23196:925.952 - 0.080ms returns 0
T0DFC 23196:925.952 JLINK_WriteReg(MSP, 0x20001000)
T0DFC 23196:925.952 - 0.057ms returns 0
T0DFC 23196:925.952 JLINK_WriteReg(PSP, 0x20001000)
T0DFC 23196:925.952 - 0.059ms returns 0
T0DFC 23196:925.952 JLINK_WriteReg(CFBP, 0x00000000)
T0DFC 23196:925.952 - 0.063ms returns 0
T0DFC 23196:925.952 JLINK_SetBPEx(Addr = 0x20000000, Type = 0xFFFFFFF2)
T0DFC 23196:925.952 - 0.069ms returns 0x00000003
T0DFC 23196:925.952 JLINK_Go()
T0DFC 23196:925.952   CPU_ReadMem(4 bytes @ 0xE0001000)
T0DFC 23196:932.096 - 5.014ms 
T0DFC 23196:932.096 JLINK_IsHalted()
T0DFC 23196:936.192   CPU_ReadMem(2 bytes @ 0x20000000)
T0DFC 23196:940.288 - 7.772ms returns TRUE
T0DFC 23196:940.288 JLINK_ReadReg(R15 (PC))
T0DFC 23196:940.288 - 0.086ms returns 0x20000000
T0DFC 23196:940.288 JLINK_ClrBPEx(BPHandle = 0x00000003)
T0DFC 23196:940.288 - 0.104ms returns 0x00
T0DFC 23196:940.288 JLINK_ReadReg(R0)
T0DFC 23196:940.288 - 0.089ms returns 0x00000000
T0DFC 23196:940.288 JLINK_HasError()
T0DFC 23196:940.288 JLINK_WriteReg(R0, 0x08002000)
T0DFC 23196:940.288 - 0.097ms returns 0
T0DFC 23196:940.288 JLINK_WriteReg(R1, 0x00002000)
T0DFC 23196:940.288 - 0.110ms returns 0
T0DFC 23196:940.288 JLINK_WriteReg(R2, 0x000000FF)
T0DFC 23196:940.288 - 0.091ms returns 0
T0DFC 23196:940.288 JLINK_WriteReg(R3, 0x00000000)
T0DFC 23196:942.336 - 0.090ms returns 0
T0DFC 23196:942.336 JLINK_WriteReg(R4, 0x00000000)
T0DFC 23196:942.336 - 0.099ms returns 0
T0DFC 23196:942.336 JLINK_WriteReg(R5, 0x00000000)
T0DFC 23196:942.336 - 0.082ms returns 0
T0DFC 23196:942.336 JLINK_WriteReg(R6, 0x00000000)
T0DFC 23196:942.336 - 0.074ms returns 0
T0DFC 23196:942.336 JLINK_WriteReg(R7, 0x00000000)
T0DFC 23196:942.336 - 0.056ms returns 0
T0DFC 23196:942.336 JLINK_WriteReg(R8, 0x00000000)
T0DFC 23196:942.336 - 0.074ms returns 0
T0DFC 23196:942.336 JLINK_WriteReg(R9, 0x20000400)
T0DFC 23196:942.336 - 0.083ms returns 0
T0DFC 23196:942.336 JLINK_WriteReg(R10, 0x00000000)
T0DFC 23196:942.336 - 0.077ms returns 0
T0DFC 23196:942.336 JLINK_WriteReg(R11, 0x00000000)
T0DFC 23196:942.336 - 0.075ms returns 0
T0DFC 23196:942.336 JLINK_WriteReg(R12, 0x00000000)
T0DFC 23196:942.336 - 0.075ms returns 0
T0DFC 23196:942.336 JLINK_WriteReg(R13 (SP), 0x20001000)
T0DFC 23196:942.336 - 0.077ms returns 0
T0DFC 23196:942.336 JLINK_WriteReg(R14, 0x20000001)
T0DFC 23196:942.336 - 0.069ms returns 0
T0DFC 23196:942.336 JLINK_WriteReg(R15 (PC), 0x2000031C)
T0DFC 23196:942.336 - 0.086ms returns 0
T0DFC 23196:942.336 JLINK_WriteReg(XPSR, 0x01000000)
T0DFC 23196:942.336 - 0.077ms returns 0
T0DFC 23196:942.336 JLINK_WriteReg(MSP, 0x20001000)
T0DFC 23196:942.336 - 0.074ms returns 0
T0DFC 23196:942.336 JLINK_WriteReg(PSP, 0x20001000)
T0DFC 23196:942.336 - 0.141ms returns 0
T0DFC 23196:942.336 JLINK_WriteReg(CFBP, 0x00000000)
T0DFC 23196:942.336 - 0.097ms returns 0
T0DFC 23196:942.336 JLINK_SetBPEx(Addr = 0x20000000, Type = 0xFFFFFFF2)
T0DFC 23196:944.384 - 0.083ms returns 0x00000004
T0DFC 23196:944.384 JLINK_Go()
T0DFC 23196:944.384   CPU_ReadMem(4 bytes @ 0xE0001000)
T0DFC 23196:948.480 - 4.546ms 
T0DFC 23196:948.480 JLINK_IsHalted()
T0DFC 23196:952.576   CPU_ReadMem(2 bytes @ 0x20000000)
T0DFC 23196:952.576 - 4.444ms returns TRUE
T0DFC 23196:952.576 JLINK_ReadReg(R15 (PC))
T0DFC 23196:952.576 - 0.134ms returns 0x20000000
T0DFC 23196:952.576 JLINK_ClrBPEx(BPHandle = 0x00000004)
T0DFC 23196:952.576 - 0.082ms returns 0x00
T0DFC 23196:952.576 JLINK_ReadReg(R0)
T0DFC 23196:952.576 - 0.066ms returns 0x00000001
T0DFC 23196:952.576 JLINK_HasError()
T0DFC 23196:952.576 JLINK_WriteReg(R0, 0x08002000)
T0DFC 23196:952.576 - 0.080ms returns 0
T0DFC 23196:952.576 JLINK_WriteReg(R1, 0x00002000)
T0DFC 23196:952.576 - 0.090ms returns 0
T0DFC 23196:952.576 JLINK_WriteReg(R2, 0x000000FF)
T0DFC 23196:952.576 - 0.081ms returns 0
T0DFC 23196:952.576 JLINK_WriteReg(R3, 0x00000000)
T0DFC 23196:952.576 - 0.082ms returns 0
T0DFC 23196:952.576 JLINK_WriteReg(R4, 0x00000000)
T0DFC 23196:952.576 - 0.119ms returns 0
T0DFC 23196:952.576 JLINK_WriteReg(R5, 0x00000000)
T0DFC 23196:952.576 - 0.113ms returns 0
T0DFC 23196:956.672 JLINK_WriteReg(R6, 0x00000000)
T0DFC 23196:956.672 - 0.087ms returns 0
T0DFC 23196:956.672 JLINK_WriteReg(R7, 0x00000000)
T0DFC 23196:956.672 - 0.115ms returns 0
T0DFC 23196:956.672 JLINK_WriteReg(R8, 0x00000000)
T0DFC 23196:956.672 - 0.106ms returns 0
T0DFC 23196:956.672 JLINK_WriteReg(R9, 0x20000400)
T0DFC 23196:956.672 - 0.074ms returns 0
T0DFC 23196:956.672 JLINK_WriteReg(R10, 0x00000000)
T0DFC 23196:956.672 - 0.071ms returns 0
T0DFC 23196:956.672 JLINK_WriteReg(R11, 0x00000000)
T0DFC 23196:956.672 - 0.077ms returns 0
T0DFC 23196:956.672 JLINK_WriteReg(R12, 0x00000000)
T0DFC 23196:956.672 - 0.081ms returns 0
T0DFC 23196:956.672 JLINK_WriteReg(R13 (SP), 0x20001000)
T0DFC 23196:956.672 - 0.068ms returns 0
T0DFC 23196:956.672 JLINK_WriteReg(R14, 0x20000001)
T0DFC 23196:956.672 - 0.078ms returns 0
T0DFC 23196:956.672 JLINK_WriteReg(R15 (PC), 0x200002AC)
T0DFC 23196:956.672 - 0.071ms returns 0
T0DFC 23196:956.672 JLINK_WriteReg(XPSR, 0x01000000)
T0DFC 23196:956.672 - 0.086ms returns 0
T0DFC 23196:956.672 JLINK_WriteReg(MSP, 0x20001000)
T0DFC 23196:956.672 - 0.084ms returns 0
T0DFC 23196:956.672 JLINK_WriteReg(PSP, 0x20001000)
T0DFC 23196:956.672 - 0.078ms returns 0
T0DFC 23196:956.672 JLINK_WriteReg(CFBP, 0x00000000)
T0DFC 23196:956.672 - 0.101ms returns 0
T0DFC 23196:956.672 JLINK_SetBPEx(Addr = 0x20000000, Type = 0xFFFFFFF2)
T0DFC 23196:956.672 - 0.089ms returns 0x00000005
T0DFC 23196:956.672 JLINK_Go()
T0DFC 23196:956.672   CPU_ReadMem(4 bytes @ 0xE0001000)
T0DFC 23196:960.768 - 5.179ms 
T0DFC 23196:960.768 JLINK_IsHalted()
T0DFC 23196:968.960   CPU_ReadMem(2 bytes @ 0x20000000)
T0DFC 23196:968.960 - 7.699ms returns TRUE
T0DFC 23196:968.960 JLINK_ReadReg(R15 (PC))
T0DFC 23196:968.960 - 0.097ms returns 0x20000000
T0DFC 23196:968.960 JLINK_ClrBPEx(BPHandle = 0x00000005)
T0DFC 23196:968.960 - 0.099ms returns 0x00
T0DFC 23196:968.960 JLINK_ReadReg(R0)
T0DFC 23196:968.960 - 0.087ms returns 0x00000000
T0DFC 23196:973.056 JLINK_HasError()
T0DFC 23196:973.056 JLINK_WriteReg(R0, 0x08004000)
T0DFC 23196:973.056 - 0.093ms returns 0
T0DFC 23196:973.056 JLINK_WriteReg(R1, 0x00002000)
T0DFC 23196:973.056 - 0.093ms returns 0
T0DFC 23196:973.056 JLINK_WriteReg(R2, 0x000000FF)
T0DFC 23196:973.056 - 0.097ms returns 0
T0DFC 23196:973.056 JLINK_WriteReg(R3, 0x00000000)
T0DFC 23196:973.056 - 0.090ms returns 0
T0DFC 23196:973.056 JLINK_WriteReg(R4, 0x00000000)
T0DFC 23196:973.056 - 0.088ms returns 0
T0DFC 23196:973.056 JLINK_WriteReg(R5, 0x00000000)
T0DFC 23196:973.056 - 0.089ms returns 0
T0DFC 23196:973.056 JLINK_WriteReg(R6, 0x00000000)
T0DFC 23196:973.056 - 0.092ms returns 0
T0DFC 23196:973.056 JLINK_WriteReg(R7, 0x00000000)
T0DFC 23196:973.056 - 0.066ms returns 0
T0DFC 23196:973.056 JLINK_WriteReg(R8, 0x00000000)
T0DFC 23196:973.056 - 0.066ms returns 0
T0DFC 23196:973.056 JLINK_WriteReg(R9, 0x20000400)
T0DFC 23196:973.056 - 0.070ms returns 0
T0DFC 23196:973.056 JLINK_WriteReg(R10, 0x00000000)
T0DFC 23196:973.056 - 0.075ms returns 0
T0DFC 23196:973.056 JLINK_WriteReg(R11, 0x00000000)
T0DFC 23196:973.056 - 0.071ms returns 0
T0DFC 23196:973.056 JLINK_WriteReg(R12, 0x00000000)
T0DFC 23196:973.056 - 0.072ms returns 0
T0DFC 23196:973.056 JLINK_WriteReg(R13 (SP), 0x20001000)
T0DFC 23196:973.056 - 0.083ms returns 0
T0DFC 23196:973.056 JLINK_WriteReg(R14, 0x20000001)
T0DFC 23196:975.104 - 0.073ms returns 0
T0DFC 23196:975.104 JLINK_WriteReg(R15 (PC), 0x2000031C)
T0DFC 23196:975.104 - 0.072ms returns 0
T0DFC 23196:975.104 JLINK_WriteReg(XPSR, 0x01000000)
T0DFC 23196:975.104 - 0.072ms returns 0
T0DFC 23196:975.104 JLINK_WriteReg(MSP, 0x20001000)
T0DFC 23196:975.104 - 0.072ms returns 0
T0DFC 23196:975.104 JLINK_WriteReg(PSP, 0x20001000)
T0DFC 23196:975.104 - 0.072ms returns 0
T0DFC 23196:975.104 JLINK_WriteReg(CFBP, 0x00000000)
T0DFC 23196:975.104 - 0.077ms returns 0
T0DFC 23196:975.104 JLINK_SetBPEx(Addr = 0x20000000, Type = 0xFFFFFFF2)
T0DFC 23196:975.104 - 0.097ms returns 0x00000006
T0DFC 23196:975.104 JLINK_Go()
T0DFC 23196:975.104   CPU_ReadMem(4 bytes @ 0xE0001000)
T0DFC 23196:981.248 - 4.774ms 
T0DFC 23196:981.248 JLINK_IsHalted()
T0DFC 23196:983.296   CPU_ReadMem(2 bytes @ 0x20000000)
T0DFC 23196:983.296 - 4.522ms returns TRUE
T0DFC 23196:983.296 JLINK_ReadReg(R15 (PC))
T0DFC 23196:983.296 - 0.098ms returns 0x20000000
T0DFC 23196:983.296 JLINK_ClrBPEx(BPHandle = 0x00000006)
T0DFC 23196:983.296 - 0.091ms returns 0x00
T0DFC 23196:983.296 JLINK_ReadReg(R0)
T0DFC 23196:985.344 - 0.090ms returns 0x00000001
T0DFC 23196:985.344 JLINK_HasError()
T0DFC 23196:985.344 JLINK_WriteReg(R0, 0x08004000)
T0DFC 23196:985.344 - 0.070ms returns 0
T0DFC 23196:985.344 JLINK_WriteReg(R1, 0x00002000)
T0DFC 23196:985.344 - 0.069ms returns 0
T0DFC 23196:985.344 JLINK_WriteReg(R2, 0x000000FF)
T0DFC 23196:985.344 - 0.068ms returns 0
T0DFC 23196:985.344 JLINK_WriteReg(R3, 0x00000000)
T0DFC 23196:985.344 - 0.067ms returns 0
T0DFC 23196:985.344 JLINK_WriteReg(R4, 0x00000000)
T0DFC 23196:985.344 - 0.067ms returns 0
T0DFC 23196:985.344 JLINK_WriteReg(R5, 0x00000000)
T0DFC 23196:985.344 - 0.069ms returns 0
T0DFC 23196:985.344 JLINK_WriteReg(R6, 0x00000000)
T0DFC 23196:985.344 - 0.124ms returns 0
T0DFC 23196:985.344 JLINK_WriteReg(R7, 0x00000000)
T0DFC 23196:985.344 - 0.070ms returns 0
T0DFC 23196:985.344 JLINK_WriteReg(R8, 0x00000000)
T0DFC 23196:985.344 - 0.070ms returns 0
T0DFC 23196:985.344 JLINK_WriteReg(R9, 0x20000400)
T0DFC 23196:985.344 - 0.068ms returns 0
T0DFC 23196:985.344 JLINK_WriteReg(R10, 0x00000000)
T0DFC 23196:985.344 - 0.072ms returns 0
T0DFC 23196:985.344 JLINK_WriteReg(R11, 0x00000000)
T0DFC 23196:985.344 - 0.068ms returns 0
T0DFC 23196:985.344 JLINK_WriteReg(R12, 0x00000000)
T0DFC 23196:985.344 - 0.065ms returns 0
T0DFC 23196:985.344 JLINK_WriteReg(R13 (SP), 0x20001000)
T0DFC 23196:985.344 - 0.078ms returns 0
T0DFC 23196:985.344 JLINK_WriteReg(R14, 0x20000001)
T0DFC 23196:985.344 - 0.110ms returns 0
T0DFC 23196:985.344 JLINK_WriteReg(R15 (PC), 0x200002AC)
T0DFC 23196:985.344 - 0.110ms returns 0
T0DFC 23196:989.440 JLINK_WriteReg(XPSR, 0x01000000)
T0DFC 23196:989.440 - 0.111ms returns 0
T0DFC 23196:989.440 JLINK_WriteReg(MSP, 0x20001000)
T0DFC 23196:989.440 - 0.110ms returns 0
T0DFC 23196:989.440 JLINK_WriteReg(PSP, 0x20001000)
T0DFC 23196:989.440 - 0.104ms returns 0
T0DFC 23196:989.440 JLINK_WriteReg(CFBP, 0x00000000)
T0DFC 23196:989.440 - 0.108ms returns 0
T0DFC 23196:989.440 JLINK_SetBPEx(Addr = 0x20000000, Type = 0xFFFFFFF2)
T0DFC 23196:989.440 - 0.099ms returns 0x00000007
T0DFC 23196:989.440 JLINK_Go()
T0DFC 23196:989.440   CPU_ReadMem(4 bytes @ 0xE0001000)
T0DFC 23196:993.536 - 5.061ms 
T0DFC 23196:993.536 JLINK_IsHalted()
T0DFC 23196:999.680   CPU_ReadMem(2 bytes @ 0x20000000)
T0DFC 23197:001.728 - 8.249ms returns TRUE
T0DFC 23197:001.728 JLINK_ReadReg(R15 (PC))
T0DFC 23197:001.728 - 0.091ms returns 0x20000000
T0DFC 23197:001.728 JLINK_ClrBPEx(BPHandle = 0x00000007)
T0DFC 23197:001.728 - 0.102ms returns 0x00
T0DFC 23197:001.728 JLINK_ReadReg(R0)
T0DFC 23197:001.728 - 0.103ms returns 0x00000000
T0DFC 23197:001.728 JLINK_HasError()
T0DFC 23197:001.728 JLINK_WriteReg(R0, 0x00000001)
T0DFC 23197:001.728 - 0.088ms returns 0
T0DFC 23197:001.728 JLINK_WriteReg(R1, 0x00002000)
T0DFC 23197:001.728 - 0.081ms returns 0
T0DFC 23197:001.728 JLINK_WriteReg(R2, 0x000000FF)
T0DFC 23197:001.728 - 0.099ms returns 0
T0DFC 23197:001.728 JLINK_WriteReg(R3, 0x00000000)
T0DFC 23197:005.824 - 0.103ms returns 0
T0DFC 23197:005.824 JLINK_WriteReg(R4, 0x00000000)
T0DFC 23197:005.824 - 0.110ms returns 0
T0DFC 23197:005.824 JLINK_WriteReg(R5, 0x00000000)
T0DFC 23197:005.824 - 0.082ms returns 0
T0DFC 23197:005.824 JLINK_WriteReg(R6, 0x00000000)
T0DFC 23197:005.824 - 0.077ms returns 0
T0DFC 23197:005.824 JLINK_WriteReg(R7, 0x00000000)
T0DFC 23197:005.824 - 0.087ms returns 0
T0DFC 23197:005.824 JLINK_WriteReg(R8, 0x00000000)
T0DFC 23197:005.824 - 0.078ms returns 0
T0DFC 23197:005.824 JLINK_WriteReg(R9, 0x20000400)
T0DFC 23197:005.824 - 0.074ms returns 0
T0DFC 23197:005.824 JLINK_WriteReg(R10, 0x00000000)
T0DFC 23197:005.824 - 0.093ms returns 0
T0DFC 23197:005.824 JLINK_WriteReg(R11, 0x00000000)
T0DFC 23197:005.824 - 0.074ms returns 0
T0DFC 23197:005.824 JLINK_WriteReg(R12, 0x00000000)
T0DFC 23197:005.824 - 0.073ms returns 0
T0DFC 23197:005.824 JLINK_WriteReg(R13 (SP), 0x20001000)
T0DFC 23197:005.824 - 0.074ms returns 0
T0DFC 23197:005.824 JLINK_WriteReg(R14, 0x20000001)
T0DFC 23197:005.824 - 0.084ms returns 0
T0DFC 23197:005.824 JLINK_WriteReg(R15 (PC), 0x20000204)
T0DFC 23197:005.824 - 0.087ms returns 0
T0DFC 23197:005.824 JLINK_WriteReg(XPSR, 0x01000000)
T0DFC 23197:005.824 - 0.073ms returns 0
T0DFC 23197:005.824 JLINK_WriteReg(MSP, 0x20001000)
T0DFC 23197:005.824 - 0.071ms returns 0
T0DFC 23197:005.824 JLINK_WriteReg(PSP, 0x20001000)
T0DFC 23197:005.824 - 0.094ms returns 0
T0DFC 23197:005.824 JLINK_WriteReg(CFBP, 0x00000000)
T0DFC 23197:007.872 - 0.088ms returns 0
T0DFC 23197:007.872 JLINK_SetBPEx(Addr = 0x20000000, Type = 0xFFFFFFF2)
T0DFC 23197:007.872 - 0.069ms returns 0x00000008
T0DFC 23197:007.872 JLINK_Go()
T0DFC 23197:007.872   CPU_ReadMem(4 bytes @ 0xE0001000)
T0DFC 23197:009.920 - 4.324ms 
T0DFC 23197:009.920 JLINK_IsHalted()
T0DFC 23197:016.064   CPU_ReadMem(2 bytes @ 0x20000000)
T0DFC 23197:016.064 - 4.597ms returns TRUE
T0DFC 23197:016.064 JLINK_ReadReg(R15 (PC))
T0DFC 23197:016.064 - 0.098ms returns 0x20000000
T0DFC 23197:016.064 JLINK_ClrBPEx(BPHandle = 0x00000008)
T0DFC 23197:016.064 - 0.092ms returns 0x00
T0DFC 23197:016.064 JLINK_ReadReg(R0)
T0DFC 23197:016.064 - 0.091ms returns 0x00000000
T0DFC 23197:073.408 JLINK_WriteMem(0x20000000, 0x408 Bytes, ...)
T0DFC 23197:073.408   Data:  00 BE 0A E0 0D 78 2D 06 68 40 08 24 40 00 00 D3 ...
T0DFC 23197:073.408   CPU_WriteMem(1032 bytes @ 0x20000000)
T0DFC 23197:081.600 - 6.786ms returns 0x408
T0DFC 23197:081.600 JLINK_HasError()
T0DFC 23197:081.600 JLINK_WriteReg(R0, 0x08000000)
T0DFC 23197:081.600 - 0.102ms returns 0
T0DFC 23197:081.600 JLINK_WriteReg(R1, 0x00B71B00)
T0DFC 23197:081.600 - 0.101ms returns 0
T0DFC 23197:081.600 JLINK_WriteReg(R2, 0x00000002)
T0DFC 23197:081.600 - 0.115ms returns 0
T0DFC 23197:081.600 JLINK_WriteReg(R3, 0x00000000)
T0DFC 23197:081.600 - 0.102ms returns 0
T0DFC 23197:081.600 JLINK_WriteReg(R4, 0x00000000)
T0DFC 23197:081.600 - 0.105ms returns 0
T0DFC 23197:081.600 JLINK_WriteReg(R5, 0x00000000)
T0DFC 23197:081.600 - 0.104ms returns 0
T0DFC 23197:081.600 JLINK_WriteReg(R6, 0x00000000)
T0DFC 23197:081.600 - 0.123ms returns 0
T0DFC 23197:081.600 JLINK_WriteReg(R7, 0x00000000)
T0DFC 23197:081.600 - 0.081ms returns 0
T0DFC 23197:081.600 JLINK_WriteReg(R8, 0x00000000)
T0DFC 23197:081.600 - 0.062ms returns 0
T0DFC 23197:081.600 JLINK_WriteReg(R9, 0x20000400)
T0DFC 23197:081.600 - 0.063ms returns 0
T0DFC 23197:081.600 JLINK_WriteReg(R10, 0x00000000)
T0DFC 23197:081.600 - 0.078ms returns 0
T0DFC 23197:081.600 JLINK_WriteReg(R11, 0x00000000)
T0DFC 23197:081.600 - 0.072ms returns 0
T0DFC 23197:083.648 JLINK_WriteReg(R12, 0x00000000)
T0DFC 23197:083.648 - 0.095ms returns 0
T0DFC 23197:083.648 JLINK_WriteReg(R13 (SP), 0x20001000)
T0DFC 23197:083.648 - 0.077ms returns 0
T0DFC 23197:083.648 JLINK_WriteReg(R14, 0x20000001)
T0DFC 23197:083.648 - 0.066ms returns 0
T0DFC 23197:083.648 JLINK_WriteReg(R15 (PC), 0x200001A8)
T0DFC 23197:083.648 - 0.072ms returns 0
T0DFC 23197:083.648 JLINK_WriteReg(XPSR, 0x01000000)
T0DFC 23197:083.648 - 0.071ms returns 0
T0DFC 23197:083.648 JLINK_WriteReg(MSP, 0x20001000)
T0DFC 23197:083.648 - 0.085ms returns 0
T0DFC 23197:083.648 JLINK_WriteReg(PSP, 0x20001000)
T0DFC 23197:083.648 - 0.080ms returns 0
T0DFC 23197:083.648 JLINK_WriteReg(CFBP, 0x00000000)
T0DFC 23197:083.648 - 0.206ms returns 0
T0DFC 23197:083.648 JLINK_SetBPEx(Addr = 0x20000000, Type = 0xFFFFFFF2)
T0DFC 23197:083.648   CPU_ReadMem(2 bytes @ 0x20000000)
T0DFC 23197:087.744 - 1.708ms returns 0x00000009
T0DFC 23197:087.744 JLINK_Go()
T0DFC 23197:087.744   CPU_WriteMem(2 bytes @ 0x20000000)
T0DFC 23197:087.744   CPU_ReadMem(4 bytes @ 0xE0001000)
T0DFC 23197:091.840 - 5.377ms 
T0DFC 23197:091.840 JLINK_IsHalted()
T0DFC 23197:095.936   CPU_ReadMem(2 bytes @ 0x20000000)
T0DFC 23197:095.936 - 4.029ms returns TRUE
T0DFC 23197:095.936 JLINK_ReadReg(R15 (PC))
T0DFC 23197:095.936 - 0.113ms returns 0x20000000
T0DFC 23197:095.936 JLINK_ClrBPEx(BPHandle = 0x00000009)
T0DFC 23197:095.936 - 0.100ms returns 0x00
T0DFC 23197:095.936 JLINK_ReadReg(R0)
T0DFC 23197:095.936 - 0.113ms returns 0x00000000
T0DFC 23197:097.984 JLINK_WriteMem(0x20000408, 0x100 Bytes, ...)
T0DFC 23197:097.984   Data:  E8 20 00 20 D5 00 00 08 A5 2B 00 08 21 2A 00 08 ...
T0DFC 23197:097.984   CPU_WriteMem(256 bytes @ 0x20000408)
T0DFC 23197:100.032 - 3.130ms returns 0x100
T0DFC 23197:100.032 JLINK_HasError()
T0DFC 23197:100.032 JLINK_WriteReg(R0, 0x08000000)
T0DFC 23197:100.032 - 0.085ms returns 0
T0DFC 23197:100.032 JLINK_WriteReg(R1, 0x00000100)
T0DFC 23197:100.032 - 0.061ms returns 0
T0DFC 23197:100.032 JLINK_WriteReg(R2, 0x20000408)
T0DFC 23197:100.032 - 0.059ms returns 0
T0DFC 23197:100.032 JLINK_WriteReg(R3, 0x00000000)
T0DFC 23197:100.032 - 0.087ms returns 0
T0DFC 23197:100.032 JLINK_WriteReg(R4, 0x00000000)
T0DFC 23197:100.032 - 0.084ms returns 0
T0DFC 23197:100.032 JLINK_WriteReg(R5, 0x00000000)
T0DFC 23197:100.032 - 0.087ms returns 0
T0DFC 23197:100.032 JLINK_WriteReg(R6, 0x00000000)
T0DFC 23197:100.032 - 0.094ms returns 0
T0DFC 23197:100.032 JLINK_WriteReg(R7, 0x00000000)
T0DFC 23197:100.032 - 0.101ms returns 0
T0DFC 23197:100.032 JLINK_WriteReg(R8, 0x00000000)
T0DFC 23197:100.032 - 0.106ms returns 0
T0DFC 23197:100.032 JLINK_WriteReg(R9, 0x20000400)
T0DFC 23197:100.032 - 0.095ms returns 0
T0DFC 23197:104.128 JLINK_WriteReg(R10, 0x00000000)
T0DFC 23197:104.128 - 0.101ms returns 0
T0DFC 23197:104.128 JLINK_WriteReg(R11, 0x00000000)
T0DFC 23197:104.128 - 0.101ms returns 0
T0DFC 23197:104.128 JLINK_WriteReg(R12, 0x00000000)
T0DFC 23197:104.128 - 0.103ms returns 0
T0DFC 23197:104.128 JLINK_WriteReg(R13 (SP), 0x20001000)
T0DFC 23197:104.128 - 0.102ms returns 0
T0DFC 23197:104.128 JLINK_WriteReg(R14, 0x20000001)
T0DFC 23197:104.128 - 0.105ms returns 0
T0DFC 23197:104.128 JLINK_WriteReg(R15 (PC), 0x20000322)
T0DFC 23197:104.128 - 0.101ms returns 0
T0DFC 23197:104.128 JLINK_WriteReg(XPSR, 0x01000000)
T0DFC 23197:104.128 - 0.091ms returns 0
T0DFC 23197:104.128 JLINK_WriteReg(MSP, 0x20001000)
T0DFC 23197:104.128 - 0.083ms returns 0
T0DFC 23197:104.128 JLINK_WriteReg(PSP, 0x20001000)
T0DFC 23197:104.128 - 0.089ms returns 0
T0DFC 23197:104.128 JLINK_WriteReg(CFBP, 0x00000000)
T0DFC 23197:104.128 - 0.084ms returns 0
T0DFC 23197:104.128 JLINK_SetBPEx(Addr = 0x20000000, Type = 0xFFFFFFF2)
T0DFC 23197:104.128 - 0.085ms returns 0x0000000A
T0DFC 23197:104.128 JLINK_Go()
T0DFC 23197:104.128   CPU_ReadMem(4 bytes @ 0xE0001000)
T0DFC 23197:108.224 - 3.897ms 
T0DFC 23197:108.224 JLINK_IsHalted()
T0DFC 23197:114.368   CPU_ReadMem(2 bytes @ 0x20000000)
T0DFC 23197:114.368 - 6.024ms returns TRUE
T0DFC 23197:114.368 JLINK_ReadReg(R15 (PC))
T0DFC 23197:114.368 - 0.125ms returns 0x20000000
T0DFC 23197:114.368 JLINK_ClrBPEx(BPHandle = 0x0000000A)
T0DFC 23197:114.368 - 0.079ms returns 0x00
T0DFC 23197:114.368 JLINK_ReadReg(R0)
T0DFC 23197:114.368 - 0.083ms returns 0x00000000
T0DFC 23197:114.368 JLINK_WriteMem(0x20000408, 0x100 Bytes, ...)
T0DFC 23197:116.416   Data:  D5 40 9D 42 05 D3 1D 46 95 40 49 1B 25 46 95 40 ...
T0DFC 23197:116.416   CPU_WriteMem(256 bytes @ 0x20000408)
T0DFC 23197:116.416 - 2.202ms returns 0x100
T0DFC 23197:116.416 JLINK_HasError()
T0DFC 23197:116.416 JLINK_WriteReg(R0, 0x08000100)
T0DFC 23197:116.416 - 0.110ms returns 0
T0DFC 23197:116.416 JLINK_WriteReg(R1, 0x00000100)
T0DFC 23197:116.416 - 0.101ms returns 0
T0DFC 23197:120.512 JLINK_WriteReg(R2, 0x20000408)
T0DFC 23197:120.512 - 0.102ms returns 0
T0DFC 23197:120.512 JLINK_WriteReg(R3, 0x00000000)
T0DFC 23197:120.512 - 0.109ms returns 0
T0DFC 23197:120.512 JLINK_WriteReg(R4, 0x00000000)
T0DFC 23197:120.512 - 0.087ms returns 0
T0DFC 23197:120.512 JLINK_WriteReg(R5, 0x00000000)
T0DFC 23197:120.512 - 0.100ms returns 0
T0DFC 23197:120.512 JLINK_WriteReg(R6, 0x00000000)
T0DFC 23197:120.512 - 0.089ms returns 0
T0DFC 23197:120.512 JLINK_WriteReg(R7, 0x00000000)
T0DFC 23197:120.512 - 0.086ms returns 0
T0DFC 23197:120.512 JLINK_WriteReg(R8, 0x00000000)
T0DFC 23197:120.512 - 0.077ms returns 0
T0DFC 23197:120.512 JLINK_WriteReg(R9, 0x20000400)
T0DFC 23197:120.512 - 0.108ms returns 0
T0DFC 23197:120.512 JLINK_WriteReg(R10, 0x00000000)
T0DFC 23197:120.512 - 0.085ms returns 0
T0DFC 23197:120.512 JLINK_WriteReg(R11, 0x00000000)
T0DFC 23197:120.512 - 0.075ms returns 0
T0DFC 23197:120.512 JLINK_WriteReg(R12, 0x00000000)
T0DFC 23197:120.512 - 0.076ms returns 0
T0DFC 23197:120.512 JLINK_WriteReg(R13 (SP), 0x20001000)
T0DFC 23197:120.512 - 0.086ms returns 0
T0DFC 23197:120.512 JLINK_WriteReg(R14, 0x20000001)
T0DFC 23197:120.512 - 0.121ms returns 0
T0DFC 23197:120.512 JLINK_WriteReg(R15 (PC), 0x20000322)
T0DFC 23197:120.512 - 0.111ms returns 0
T0DFC 23197:122.560 JLINK_WriteReg(XPSR, 0x01000000)
T0DFC 23197:122.560 - 0.098ms returns 0
T0DFC 23197:122.560 JLINK_WriteReg(MSP, 0x20001000)
T0DFC 23197:122.560 - 0.091ms returns 0
T0DFC 23197:122.560 JLINK_WriteReg(PSP, 0x20001000)
T0DFC 23197:122.560 - 0.082ms returns 0
T0DFC 23197:122.560 JLINK_WriteReg(CFBP, 0x00000000)
T0DFC 23197:122.560 - 0.091ms returns 0
T0DFC 23197:122.560 JLINK_SetBPEx(Addr = 0x20000000, Type = 0xFFFFFFF2)
T0DFC 23197:122.560 - 0.092ms returns 0x0000000B
T0DFC 23197:122.560 JLINK_Go()
T0DFC 23197:122.560   CPU_ReadMem(4 bytes @ 0xE0001000)
T0DFC 23197:124.608 - 4.112ms 
T0DFC 23197:124.608 JLINK_IsHalted()
T0DFC 23197:128.704 - 0.956ms returns FALSE
T0DFC 23197:128.704 JLINK_HasError()
T0DFC 23197:140.992 JLINK_IsHalted()
